RL,Vin,Iin,Pin,Vout,Iout,Pout,Eff,Is1,Is2,Is3,Is4,Is5,Is6,Is7,Is8
15.0,400,21.1853322226042,8474.13288904167,199.146824480955,13.2764549653973,2643.96384672328,0.312004057682683,16.166261267315,16.1649032098124,16.1649032119414,16.1662612695807,47.740743404382,47.7318351666136,47.7318351662131,47.7407434038714
16.07,400,21.5081097445757,8603.24389783026,203.801319565815,12.6809935391948,2584.40321669347,0.300398692328746,16.3802828828314,16.3787183291168,16.3787183314139,16.3802828851162,48.522560829727,48.5133363207607,48.5133363203558,48.5225608292732
17.14,400,21.8123644396873,8724.9457758749,208.122919425997,12.1404732819998,2526.71074266311,0.289596154241972,16.5832268768897,16.5815027757869,16.5815027777994,16.5832268794383,49.2585786931709,49.2490890248838,49.2490890244933,49.2585786926726
18.21,400,22.0859301665164,8834.37206660657,211.963264316403,11.6371896980068,2466.65671585874,0.279211323369836,16.7660509805232,16.764254204853,16.764254206997,16.7660509827835,49.9198034528386,49.9100372179251,49.9100372174526,49.9198034523707
19.29,400,22.3374053669356,8934.96214677425,215.520784776808,11.1751600811385,2408.47927069343,0.269556740266991,16.9338916928506,16.9319513873593,16.9319513895167,16.9338916948749,50.5275320610719,50.5173996645558,50.5173996641161,50.5275320606302
20.36,400,22.5691345206318,9027.6538082527,218.733835826633,10.7448426262405,2350.2606429911,0.260340138524429,17.089422607545,17.0873639891248,17.0873639912687,17.0894226096869,51.0868334615389,51.0765237756008,51.0765237751421,51.0868334610729
21.43,400,22.78413712294,9113.65484917599,221.768327241263,10.3491748056932,2295.119184986,0.251833015729525,17.2338793644453,17.2316393851607,17.2316393871483,17.2338793663246,51.6058579905281,51.5953731482842,51.5953731478438,51.6058579901219
22.5,400,22.9817469962486,9192.69879849944,224.482843214642,9.97701525398394,2239.66875101016,0.243635606920543,17.3664187028947,17.3640996719326,17.3640996740815,17.3664187047967,52.0824957810159,52.0717393595551,52.0717393591213,52.0824957805937
23.57,400,23.1757178678946,9270.28714715784,227.132294374221,9.63592719881808,2188.63025309051,0.236090880287513,17.4977867744629,17.4954380598842,17.4954380621414,17.4977867764954,52.5501197954666,52.5390812830046,52.5390812826736,52.5501197949919
24.64,400,23.3469482935167,9338.77931740669,229.52697877491,9.3141220706535,2137.84229881781,0.228920957028404,17.6131232322919,17.6106164037692,17.6106164058381,17.6131232344584,52.9627638905809,52.9516323643502,52.9516323639361,52.9627638901413
25.71,400,23.5116946519461,9404.67786077844,231.799405694654,9.01441632456157,2089.53634671756,0.222180533735433,17.7244203997102,17.7218193357815,17.7218193379972,17.724420401856,53.3597969136194,53.348449477675,53.3484494772025,53.3597969132021
26.79,400,23.6673620746648,9466.94482986592,233.922739656937,8.73312027152268,2042.87541966812,0.215790358598409,17.8296291101063,17.8268988534201,17.8268988555621,17.8296291120561,53.7346768767174,53.7231657325082,53.7231657320186,53.7346768763695
27.86,400,23.8098656865592,9523.94627462369,235.864131801729,8.46693057790407,1997.04522978285,0.209686738269821,17.9260200548572,17.9232592146107,17.9232592166234,17.9260200568979,54.0777700064621,54.0660359185475,54.0660359181656,54.077770005976
28.93,400,23.9436488526769,9577.45954107076,237.693106913655,8.21654372882399,1953.01580699608,0.203917938637174,18.0167437933125,18.0138402219418,18.0138402242868,18.0167437953983,54.3995964382806,54.3878821493884,54.3878821489654,54.3995964378906
30.0,400,24.0727567368269,9629.10269473075,239.449070118833,7.98163567062756,1911.19523935907,0.198481135776537,18.1042442975021,18.1013023406443,18.1013023428352,18.1042442994706,54.7102400902149,54.6983365436187,54.6983365431737,54.7102400898496
15.0,401,21.2395225574283,8517.04854552875,199.662801357273,13.3108534238186,2657.68228305567,0.312042636465996,16.2076926272966,16.2063675746063,16.2063675767456,16.2076926295508,47.8631815181403,47.8542040236441,47.8542040232377,47.8631815176478
16.07,401,21.5643568493661,8647.30709659579,204.34293493589,12.7146941110227,2598.15791145844,0.300458614738138,16.4230433822344,16.4214778332745,16.4214778354289,16.4230433846663,48.6499496957975,48.6406933281739,48.6406933277571,48.6499496953664
17.14,401,21.8687772194209,8769.37966498778,208.668334683618,12.1722890924882,2539.97129421707,0.289640931428484,16.6260973676517,16.6243942941962,16.6243942961546,16.6260973702671,49.3863077546404,49.3767646386094,49.3767646382072,49.3863077541376
18.21,401,22.1426497091575,8879.20253337216,212.508649260401,11.6671323773301,2479.3665422487,0.279233020412598,16.8090764167879,16.8072966676278,16.8072966696809,16.8090764190934,50.0482569803091,50.0384220007715,50.0384220002998,50.0482569798807
19.29,401,22.3954422086506,8980.57232566888,216.089096800364,11.2046281338178,2421.19797342065,0.269603972399422,16.9779624887708,16.9759533902966,16.9759533924031,16.9779624907844,50.6590827186195,50.6490157829421,50.6490157825628,50.6590827181415
20.36,401,22.6272275648049,9073.51825348678,219.301370319575,10.7727215723056,2362.47260287787,0.260370072212067,17.1333848947361,17.1313206246106,17.1313206267581,17.133384896907,51.2185999034701,51.2082552406521,51.2082552402019,51.2185999030007
21.43,401,22.842470691871,9159.83074744025,222.340607425633,10.3758811786885,2306.9797238458,0.251858335318095,17.277956819958,17.2757292138862,17.2757292159123,17.2779568218875,51.7381840384959,51.7276521549685,51.7276521545622,51.7381840380912
22.5,401,23.0444913316446,9240.84102398949,225.125817342137,10.0055918818724,2252.51705039836,0.243756714843461,17.4138934200065,17.411547752308,17.4115477544471,17.4138934221565,52.2256004726379,52.214808359231,52.2148083588315,52.2256004721784
23.57,401,23.2353964850583,9317.3939905084,227.726058218987,9.66111721064446,2200.08814037168,0.236126983855453,17.5428819748797,17.5405464000058,17.5405464021753,17.5428819768788,52.6857240438524,52.6746388954918,52.6746388950547,52.6857240434063
24.64,401,23.4110469484064,9387.82982631096,230.134556286581,9.33877734708888,2149.17538103147,0.228932077039578,17.6618817331004,17.6593937720161,17.6593937741049,17.6618817352056,53.1087772671885,53.0976901645414,53.0976901641329,53.1087772667643
25.71,401,23.5737183996717,9453.06107826834,232.421311985386,9.03860155576486,2100.76363210402,0.222231043966643,17.7711169578132,17.7685340540885,17.7685340562307,17.7711169600366,53.501039262702,53.4896257609871,53.4896257605357,53.501039262275
26.79,401,23.728206235425,9515.01070040542,234.531116741081,8.75583302811095,2053.5152980813,0.215818495926001,17.8756213389299,17.8728814292009,17.8728814314697,17.8756213408569,53.8730685575993,53.8615299417293,53.8615299412614,53.8730685572583
27.86,401,23.8697983973693,9571.7891573451,236.458167085515,8.48825495423137,2007.1172082321,0.209690913082001,17.9711619192142,17.9683713100424,17.9683713121483,17.9711619212325,54.2139617992062,54.2022003589632,54.2022003585857,54.2139617987108
28.93,401,24.0078547716535,9627.14976343304,238.330110189744,8.23856357341028,1963.49776425608,0.203954214124108,18.0650503709264,18.0621712583304,18.0621712608215,18.0650503730502,54.5460579796487,54.5342668454779,54.534266845132,54.5460579792773
30.0,401,24.1379761320188,9679.32842893954,240.102726599372,8.00342421997884,1921.64397734837,0.198530713308888,18.1535365664233,18.150536749513,18.1505367517395,18.153536568373,54.8590990684964,54.8472259828304,54.8472259824201,54.8590990680863
15.0,402,21.2944608369488,8560.37325645342,200.18808858886,13.3458725725908,2671.68472085744,0.312099092039396,16.2496012168843,16.2482452456038,16.2482452476199,16.2496012190069,47.9873033111759,47.9783303556271,47.978330355193,47.987303310666
16.07,402,21.6193619570531,8690.98350673536,204.86808064796,12.7473699023091,2611.52920519563,0.300487189185406,16.4649755988059,16.4634247066943,16.4634247087685,16.4649756012775,48.7742488087176,48.7649413263251,48.7649413258927,48.7742488082155
17.14,402,21.9244336192489,8813.62231493807,209.203897177593,12.203530159868,2553.02606876868,0.28966819515758,16.6684653938557,16.6667978531972,16.6667978554866,16.6684653962729,49.512232025372,49.502600160949,49.5026001605083,49.5122320249223
18.21,402,22.1998490953055,8924.3393363128,213.061763701193,11.6974994208504,2492.28985750006,0.279268835885591,16.8524989807479,16.8507164232412,16.8507164254574,16.8524989834015,50.1778685815721,50.1680024669395,50.168002466485,50.1778685811351
19.29,402,22.4525046172238,9025.90685612396,216.634824295054,11.2329251359848,2433.44276315356,0.26960645638643,17.0212473357368,17.0192449718078,17.0192449740093,17.0212473377878,50.7884087368102,50.7782854398093,50.7782854393694,50.7884087363511
20.36,402,22.6860120743469,9119.77685388744,219.876961161456,10.800996269678,2374.89023729303,0.260411002960089,17.1779214555554,17.1759015376722,17.1759015398781,17.177921457458,51.3520688144381,51.3416232736225,51.3416232731905,51.3520688139818
21.43,402,22.9005928313356,9206.0383181969,222.902963944025,10.4021244478893,2318.66437074913,0.251863428176916,17.3219450905111,17.3196997755699,17.3196997775149,17.3219450925358,51.8699374773702,51.8593932514862,51.8593932510461,51.8699374769684
22.5,402,23.1039548076926,9287.78983269244,225.712081394933,10.0316480619968,2264.26416389474,0.243789341133094,17.4588357910097,17.4564986422497,17.4564986445867,17.4588357929641,52.3606174527579,52.3497819600454,52.349781959587,52.3606174523138
23.57,402,23.2948172803567,9364.51654670341,228.310494202394,9.68591149453976,2211.39524011902,0.236146225925299,17.5876756704866,17.5853298040136,17.5853298061392,17.5876756725865,52.8206613435636,52.8095389284124,52.8095389279711,52.820661343115
24.64,402,23.4713461594822,9435.48115611184,230.742452456672,9.36344555456821,2160.54439070559,0.228980838916317,17.7073189012852,17.7048899470241,17.7048899491621,17.7073189034906,53.2459354837736,53.2347249916436,53.2347249911659,53.2459354833401
25.71,402,23.6353083731531,9501.39396600756,233.035281400807,9.06247813087755,2111.87714141771,0.222270242553168,17.8175325581597,17.8149550836753,17.8149550856919,17.817532560133,53.6411431585386,53.6296927410736,53.629692740613,53.6411431581312
26.79,402,23.7929992510007,9564.78569890228,235.1859942537,8.7802818016216,2064.99930534205,0.215896034720259,17.9243687571984,17.9216735934975,17.9216735957111,17.9243687593029,54.020984030605,54.0093451600693,54.0093451596859,54.0209840302473
27.86,402,23.934497014798,9621.66779994881,237.090529452271,8.51095517667901,2017.86686898337,0.209721111863175,18.019918292299,18.0172147288007,18.0172147309625,18.0199182944013,54.3614908039872,54.349633372366,54.3496333719183,54.3614908034828
28.93,402,24.0734922476289,9677.54388354682,238.986722791242,8.2612612705506,1974.3317571711,0.204011656359187,18.1143789549418,18.1114808489263,18.111480851153,18.1143789568378,54.6959149964754,54.684073909981,54.6840739095429,54.6959149960323
30.0,402,24.2002483233438,9728.49982598419,240.714878897091,8.02382929656948,1931.45509741465,0.198535759054635,18.200378036921,18.1974268903115,18.1974268926854,18.2003780389012,55.0008376907226,54.988897126718,54.9888971262549,55.0008376903374
15.0,403,21.3499360193409,8604.02421579437,200.709980785332,13.3806653856889,2685.63309245658,0.312136858881286,16.2920243336921,16.2906920485773,16.2906920506604,16.2920243358355,48.1127479275055,48.1037342677556,48.1037342673232,48.112747927016
16.07,403,21.6742637938582,8734.72830892487,205.395410886359,12.7801816199191,2624.99065502557,0.300523446429746,16.5069357733343,16.5054270104362,16.5054270125054,16.5069357758671,48.8984033945125,48.8890312742999,48.8890312738903,48.8984033940569
17.14,403,21.9857208413031,8860.24549904514,209.771334390631,12.2366305812105,2566.89432546573,0.289709165027353,16.715323671951,16.7137254883659,16.713725490337,16.7153236741414,49.6516767353436,49.6419682110752,49.6419682106194,49.651676734915
18.21,403,22.2586480184876,8970.23515145051,213.62855494744,11.7286173472184,2505.56757541774,0.279320166429816,16.8971565314384,16.8953666328459,16.8953666350775,16.8971565340582,50.3113741838018,50.3014440969434,50.3014440964857,50.3113741833689
19.29,403,22.5105645208292,9071.75750189418,217.203211712273,11.2623970979681,2446.22882125765,0.269653242025801,17.0653361067409,17.0633481056045,17.063348107773,17.0653361088725,50.9201675945939,50.9099954725428,50.9099954721221,50.92016759417
20.36,403,22.7455964529651,9166.47537054494,220.471690506992,10.8302111060513,2387.75495109874,0.260487794334933,17.2230140343565,17.2209612027391,17.2209612049227,17.2230140362662,51.4875001204438,51.4770130559084,51.4770130555028,51.4875001200027
21.43,403,22.9624411525779,9253.86378448888,223.508125468164,10.4303652813614,2331.27139198531,0.251924109353429,17.3687723833889,17.3665144757817,17.3665144777133,17.3687723852749,52.0106341050448,52.0000942321242,52.00009423171,52.0106341046814
22.5,403,23.1631268966418,9334.74013934666,226.294469417024,10.0575319740896,2275.96386172136,0.243816520625785,17.5035820016849,17.5012050857762,17.5012050880048,17.5035820037152,52.4949216040402,52.4841178322296,52.4841178317442,52.4949216035739
23.57,403,23.3555391404593,9412.28227360511,228.909080391461,9.71130609091791,2223.00614667202,0.236181415096953,17.6335263575807,17.631170932487,17.6311709343983,17.6335263597224,52.9587303202367,52.9475767943802,52.9475767939489,52.9587303197931
24.64,403,23.5334365664731,9483.97493628864,231.346440665574,9.38795517839099,2171.8700156487,0.229004191832946,17.7542118205521,17.7517800480938,17.7517800502207,17.7542118226551,53.38731406226,53.3760386172398,53.3760386167817,53.3873140617632
25.71,403,23.6979184418636,9550.26113207105,233.666727875698,9.08703436903649,2123.33758710677,0.222332934957801,17.8652665035928,17.8626903002707,17.8626903022495,17.8652665056443,53.7838162149263,53.7723667712804,53.7723667708485,53.7838162145102
26.79,403,23.8526358901486,9612.61226372987,235.77814661929,8.80238883506061,2075.41092535292,0.215904986949679,17.9692830685345,17.9665805947213,17.9665805969935,17.9692830705723,54.1564552164502,54.1447925778317,54.1447925774577,54.1564552160862
27.86,403,23.9967535592245,9670.69168436746,237.72454516438,8.53371475007742,2028.67345752472,0.209775424937188,18.0668447552756,18.0640837919825,18.0640837942315,18.0668447574182,54.5032852848668,54.4914432114056,54.4914432109584,54.5032852843899
28.93,403,24.1334476520265,9725.77940376668,239.580233644673,8.28177767485044,1984.1502303339,0.204009380427184,18.1594148460803,18.1565652255458,18.1565652277215,18.159414848016,54.8322063737452,54.8202358526317,54.8202358522,54.8322063733061
30.0,403,24.2639857978857,9778.38627654794,241.372038102096,8.04573460340301,1942.01535925195,0.198602847579216,18.2484664323668,18.2455445182602,18.2455445205146,18.2484664342836,55.1463107402291,55.1342689631853,55.1342689627448,55.1463107398403
15.0,404,21.4054971550619,8647.82085064499,201.228583439708,13.4152388959808,2699.5295195435,0.312162979109605,16.3344373259919,16.3330894062924,16.333089408355,16.3344373279822,48.2383601227108,48.2293407171657,48.2293407167061,48.2383601222342
16.07,404,21.731960263426,8779.71194642409,205.956227794846,12.8150769562612,2639.34490881222,0.30061862221883,16.5508496560538,16.5493069001914,16.5493069023717,16.5508496584581,49.029227734495,49.0198695069688,49.019869506523,49.0292277340689
17.14,404,22.0403189614937,8904.28886044347,210.291499820409,12.2669734887569,2579.64025320789,0.289707610976966,16.7568806018102,16.755292267981,16.7552922699657,16.7568806040326,49.7750443312253,49.7653063890031,49.7653063885436,49.775044330799
18.21,404,22.3159566613398,9015.64649118127,214.189505784783,11.7594146239375,2518.74320661952,0.279374663711942,16.9407140911385,16.9389203495689,16.9389203517927,16.9407140936487,50.4413454906366,50.4313623235117,50.4313623230373,50.4413454901868
19.29,404,22.5715559710342,9118.9086122978,217.809576067001,11.2938382359474,2459.90611834099,0.269758830023096,17.1115041332109,17.1095508214893,17.1095508236804,17.1115041352831,51.0589975677102,51.0487569237683,51.0487569233381,51.058997567262
20.36,404,22.8054168722308,9213.38841638124,221.057536163574,10.8589895497678,2400.46147509767,0.260540570592866,17.2682632175927,17.2662773505591,17.2662773526543,17.2682632196112,51.6233936909398,51.6128416813299,51.6128416809216,51.6233936904857
21.43,404,23.0222363232609,9300.98347459739,224.102843466476,10.4581187509446,2343.69414939676,0.251983476349334,17.4140189387553,17.4118014237344,17.4118014258648,17.4140189407218,52.1466062581919,52.1359789682614,52.1359789678007,52.1466062577704
22.5,404,23.224405526383,9382.65983265872,226.906746652965,10.0847442956872,2288.29651896142,0.243885695503574,17.5499591144778,17.5475827943108,17.54758279655,17.5499591166113,52.6344137503118,52.6235531314182,52.6235531309484,52.6344137498476
23.57,404,23.4178549890002,9460.81341555608,229.532824352372,9.73776798800118,2235.13738917402,0.236252137210408,17.6806827649609,17.6783005629447,17.6783005651665,17.6806827670703,53.1006270676945,53.0894901713958,53.0894901709508,53.1006270672171
24.64,404,23.5981176907356,9533.63954705719,232.002016047199,9.41455819108928,2184.19648052639,0.229104160037244,17.8030038234073,17.8005285237034,17.8005285258292,17.8030038255913,53.534933273349,53.5236705951372,53.5236705947096,53.53493327284
25.71,404,23.7599203896566,9599.00783742129,234.257708649508,9.11001694191653,2134.09169457156,0.222324195449858,17.9114862091091,17.9089464744774,17.9089464766647,17.9114862109052,53.9248798003418,53.9133206105698,53.913320610149,53.9248797999209
26.79,404,23.9167626870212,9662.37212555658,236.421881008938,8.82642159842493,2086.75919687754,0.215967587437265,18.0176316160838,18.0149314926564,18.0149314947374,18.0176316181398,54.3026039354043,54.2909578659164,54.2909578655223,54.302603935067
27.86,404,24.0576847734535,9719.30464847523,238.342537001554,8.55589910656729,2039.23469938858,0.20981281821519,18.1126478073978,18.1098526908254,18.1098526929999,18.112647809568,54.6418948007781,54.6300549597178,54.6300549593031,54.6418948002905
28.93,404,24.1987989501656,9776.3147758669,240.243301854509,8.30469852860195,1995.14819541762,0.204079782735995,18.2088058637052,18.2059360377767,18.2059360399427,18.2088058656688,54.9814229949086,54.969463371654,54.9694633712222,54.9814229944522
30.0,404,24.3266729399979,9827.97586775915,241.99945324982,8.06664844166043,1952.12451244034,0.198629355495704,18.2955729663231,18.2925882064037,18.2925882089255,18.2955729685006,55.2890036051409,55.2770069204585,55.2770069199998,55.2890036047765
15.0,405,21.4609995232125,8691.70480690107,201.759413023712,13.4506275349144,2713.7907162449,0.312227667245464,16.3767374679586,16.3754358414396,16.3754358434751,16.3767374700582,48.3639469439833,48.3547772188778,48.3547772184446,48.3639469434874
16.07,405,21.7872620675433,8823.84113735502,206.489036814341,12.848229576412,2653.01855000284,0.300664813509787,16.5930610326056,16.5914546312182,16.5914546336012,16.5930610350353,49.1542792270658,49.1449633234873,49.1449633231019,49.1542792265952
17.14,405,22.0952100968818,8948.56008923712,210.849421293184,12.2995188266391,2593.34642678148,0.289806002409329,16.7984635383526,16.7968082302936,16.7968082322308,16.7984635404572,49.8992334437693,49.8895022417951,49.8895022413916,49.899233443342
18.21,405,22.3705237039171,9060.06210008643,214.729117138727,11.7890403220945,2531.45022027621,0.279407601439295,16.9821474072075,16.9802855504916,16.9802855526463,16.9821474097512,50.5646889191496,50.5546738320604,50.554673831578,50.56468891868
19.29,405,22.6293597213173,9164.89068713352,218.379411042067,11.3233852565413,2472.79420332591,0.269811641812317,17.1560102083276,17.1539670684084,17.1539670706024,17.1560102104218,51.1900847396141,51.1799729282567,51.1799729278305,51.1900847391664
